
**** 10/07/22 07:36:45 ******* PSpice 17.4.0 (Nov 2018) ******* ID# 0 ********

 ** Profile: "SCHEMATIC1-B1"  [ D:\MDDT\LAB1\b1-pspicefiles\schematic1\b1.sim ] 


 ****     CIRCUIT DESCRIPTION


******************************************************************************




** Creating circuit file "B1.cir" 
** WARNING: THIS AUTOMATICALLY GENERATED FILE MAY BE OVERWRITTEN BY SUBSEQUENT SIMULATIONS

*Libraries: 
* Profile Libraries :
* Local Libraries :
* From [PSPICE NETLIST] section of C:\cds_spb_home\cdssetup\OrCAD_PSpiceTIPSpice_Install\17.4.0\PSpice.ini file:
.lib "nom_pspti.lib" 
.lib "nom.lib" 

*Analysis directives: 
.OPTIONS ADVCONV
.OPTIONS FILEMODELSEARCH
.PROBE64 V(alias(*)) I(alias(*)) W(alias(*)) D(alias(*)) NOISE(alias(*)) 
.INC "..\SCHEMATIC1.net" 



**** INCLUDING SCHEMATIC1.net ****
* source B1
R_R1         N06354 N06345  12 TC=0,0 
V_V1         N06354 0 10Vdc
R_R2         N07177 N06345  3.55 TC=0,0 
V_V2         N07321 0 4Vdc
X_H1    N06345 N07321 N07177 0 SCHEMATIC1_H1 

.subckt SCHEMATIC1_H1 1 2 3 4  
H_H1         3 4 VH_H1 3
VH_H1         1 2 0V
.ends SCHEMATIC1_H1

**** RESUMING B1.cir ****
.END

**** 10/07/22 07:36:45 ******* PSpice 17.4.0 (Nov 2018) ******* ID# 0 ********

 ** Profile: "SCHEMATIC1-B1"  [ D:\MDDT\LAB1\b1-pspicefiles\schematic1\b1.sim ] 


 ****     SMALL SIGNAL BIAS SOLUTION       TEMPERATURE =   27.000 DEG C


******************************************************************************



 NODE   VOLTAGE     NODE   VOLTAGE     NODE   VOLTAGE     NODE   VOLTAGE


(N06345)    4.0000 (N06354)   10.0000 (N07177)  -12.1360 (N07321)    4.0000 




    VOLTAGE SOURCE CURRENTS
    NAME         CURRENT

    V_V1        -5.000E-01
    V_V2        -4.045E+00
    X_H1.VH_H1  -4.045E+00

    TOTAL POWER DISSIPATION   2.12E+01  WATTS



          JOB CONCLUDED

**** 10/07/22 07:36:45 ******* PSpice 17.4.0 (Nov 2018) ******* ID# 0 ********

 ** Profile: "SCHEMATIC1-B1"  [ D:\MDDT\LAB1\b1-pspicefiles\schematic1\b1.sim ] 


 ****     JOB STATISTICS SUMMARY


******************************************************************************



  License check-out time            =         .84
  Total job time (using Solver 1)   =         .22
