
**** 10/07/22 00:32:29 ******* PSpice 17.4.0 (Nov 2018) ******* ID# 0 ********

 ** Profile: "SCHEMATIC1-B1"  [ D:\MDDT\LAB1\b1-pspicefiles\schematic1\b1.sim ] 


 ****     CIRCUIT DESCRIPTION


******************************************************************************




** Creating circuit file "B1.cir" 
** WARNING: THIS AUTOMATICALLY GENERATED FILE MAY BE OVERWRITTEN BY SUBSEQUENT SIMULATIONS

*Libraries: 
* Profile Libraries :
* Local Libraries :
* From [PSPICE NETLIST] section of C:\cds_spb_home\cdssetup\OrCAD_PSpiceTIPSpice_Install\17.4.0\PSpice.ini file:
.lib "nom_pspti.lib" 
.lib "nom.lib" 

*Analysis directives: 
.OPTIONS ADVCONV
.OPTIONS FILEMODELSEARCH
.PROBE64 V(alias(*)) I(alias(*)) W(alias(*)) D(alias(*)) NOISE(alias(*)) 
.INC "..\SCHEMATIC1.net" 



**** INCLUDING SCHEMATIC1.net ****
* source B1
R_R4         0 N04913  30 TC=0,0 
R_R5         0 N04917  50 TC=0,0 
V_V1         N05315 0 100Vdc
R_R3         N04913 N04917  20 TC=0,0 
R_R1         N04913 N05322  24 TC=0,0 
R_R2         N04917 N05322  10 TC=0,0 
R_R6         N05322 N05315  13 TC=0,0 

**** RESUMING B1.cir ****
.END

**** 10/07/22 00:32:29 ******* PSpice 17.4.0 (Nov 2018) ******* ID# 0 ********

 ** Profile: "SCHEMATIC1-B1"  [ D:\MDDT\LAB1\b1-pspicefiles\schematic1\b1.sim ] 


 ****     SMALL SIGNAL BIAS SOLUTION       TEMPERATURE =   27.000 DEG C


******************************************************************************



 NODE   VOLTAGE     NODE   VOLTAGE     NODE   VOLTAGE     NODE   VOLTAGE


(N04913)   43.5000 (N04917)   52.5000 (N05315)  100.0000 (N05322)   67.5000 




    VOLTAGE SOURCE CURRENTS
    NAME         CURRENT

    V_V1        -2.500E+00

    TOTAL POWER DISSIPATION   2.50E+02  WATTS



          JOB CONCLUDED

**** 10/07/22 00:32:29 ******* PSpice 17.4.0 (Nov 2018) ******* ID# 0 ********

 ** Profile: "SCHEMATIC1-B1"  [ D:\MDDT\LAB1\b1-pspicefiles\schematic1\b1.sim ] 


 ****     JOB STATISTICS SUMMARY


******************************************************************************



  License check-out time            =       38.11
  Total job time (using Solver 1)   =         .20
