
**** 10/07/22 01:12:07 ******* PSpice 17.4.0 (Nov 2018) ******* ID# 0 ********

 ** Profile: "SCHEMATIC1-B1"  [ D:\MDDT\LAB1\b1-pspicefiles\schematic1\b1.sim ] 


 ****     CIRCUIT DESCRIPTION


******************************************************************************




** Creating circuit file "B1.cir" 
** WARNING: THIS AUTOMATICALLY GENERATED FILE MAY BE OVERWRITTEN BY SUBSEQUENT SIMULATIONS

*Libraries: 
* Profile Libraries :
* Local Libraries :
* From [PSPICE NETLIST] section of C:\cds_spb_home\cdssetup\OrCAD_PSpiceTIPSpice_Install\17.4.0\PSpice.ini file:
.lib "nom_pspti.lib" 
.lib "nom.lib" 

*Analysis directives: 
.OPTIONS ADVCONV
.OPTIONS FILEMODELSEARCH
.PROBE64 V(alias(*)) I(alias(*)) W(alias(*)) D(alias(*)) NOISE(alias(*)) 
.INC "..\SCHEMATIC1.net" 



**** INCLUDING SCHEMATIC1.net ****
* source B1
R_R1         N06354 N06345  1 TC=0,0 
R_R2         N06391 N06345  1.43 TC=0,0 
V_V1         N06354 0 30Vdc
V_V2         N06345 N06387 8Vdc
X_F1    N06391 0 N06391 N06387 SCHEMATIC1_F1 

.subckt SCHEMATIC1_F1 1 2 3 4  
F_F1         3 4 VF_F1 0.4
VF_F1         1 2 0V
.ends SCHEMATIC1_F1

**** RESUMING B1.cir ****
.END

**** 10/07/22 01:12:07 ******* PSpice 17.4.0 (Nov 2018) ******* ID# 0 ********

 ** Profile: "SCHEMATIC1-B1"  [ D:\MDDT\LAB1\b1-pspicefiles\schematic1\b1.sim ] 


 ****     SMALL SIGNAL BIAS SOLUTION       TEMPERATURE =   27.000 DEG C


******************************************************************************



 NODE   VOLTAGE     NODE   VOLTAGE     NODE   VOLTAGE     NODE   VOLTAGE


(N06345)   20.0070 (N06354)   30.0000 (N06387)   12.0070 (N06391)    0.0000 




    VOLTAGE SOURCE CURRENTS
    NAME         CURRENT

    V_V1        -9.993E+00
    V_V2        -3.997E+00
    X_F1.VF_F1   9.993E+00

    TOTAL POWER DISSIPATION   3.32E+02  WATTS



          JOB CONCLUDED

**** 10/07/22 01:12:07 ******* PSpice 17.4.0 (Nov 2018) ******* ID# 0 ********

 ** Profile: "SCHEMATIC1-B1"  [ D:\MDDT\LAB1\b1-pspicefiles\schematic1\b1.sim ] 


 ****     JOB STATISTICS SUMMARY


******************************************************************************



  License check-out time            =       41.59
  Total job time (using Solver 1)   =         .20
