
**** 10/06/22 14:35:01 ******* PSpice 17.4.0 (Nov 2018) ******* ID# 0 ********

 ** Profile: "SCHEMATIC1-B1"  [ D:\MDDT\LAB1\b1-pspicefiles\schematic1\b1.sim ] 


 ****     CIRCUIT DESCRIPTION


******************************************************************************




** Creating circuit file "B1.cir" 
** WARNING: THIS AUTOMATICALLY GENERATED FILE MAY BE OVERWRITTEN BY SUBSEQUENT SIMULATIONS

*Libraries: 
* Profile Libraries :
* Local Libraries :
* From [PSPICE NETLIST] section of C:\cds_spb_home\cdssetup\OrCAD_PSpiceTIPSpice_Install\17.4.0\PSpice.ini file:
.lib "nom_pspti.lib" 
.lib "nom.lib" 

*Analysis directives: 
.OPTIONS ADVCONV
.OPTIONS FILEMODELSEARCH
.PROBE64 V(alias(*)) I(alias(*)) W(alias(*)) D(alias(*)) NOISE(alias(*)) 
.INC "..\SCHEMATIC1.net" 



**** INCLUDING SCHEMATIC1.net ****
* source B1
R_R3         N02132 N02615  10k TC=0,0 
R_R4         N02136 N02132  1k TC=0,0 
R_R5         N02154 N02136  2k TC=0,0 
R_R9         N02132 N02154  6k TC=0,0 
R_R6         N02615 N02154  6k TC=0,0 
R_R2         N02615 N03275  2k TC=0,0 
R_R10         N02154 N03275  6k TC=0,0 
R_R7         0 N02154  9k TC=0,0 
R_R8         0 N03275  4k TC=0,0 
R_R1         N03275 N02290  2k TC=0,0 
I_I1         0 N02290 DC 18mAdc  

**** RESUMING B1.cir ****
.END

**** 10/06/22 14:35:01 ******* PSpice 17.4.0 (Nov 2018) ******* ID# 0 ********

 ** Profile: "SCHEMATIC1-B1"  [ D:\MDDT\LAB1\b1-pspicefiles\schematic1\b1.sim ] 


 ****     SMALL SIGNAL BIAS SOLUTION       TEMPERATURE =   27.000 DEG C


******************************************************************************



 NODE   VOLTAGE     NODE   VOLTAGE     NODE   VOLTAGE     NODE   VOLTAGE


(N02132)   42.0000 (N02136)   41.5000 (N02154)   40.5000 (N02290)   90.0000     

(N02615)   49.5000 (N03275)   54.0000 




    VOLTAGE SOURCE CURRENTS
    NAME         CURRENT


    TOTAL POWER DISSIPATION   0.00E+00  WATTS



          JOB CONCLUDED

**** 10/06/22 14:35:01 ******* PSpice 17.4.0 (Nov 2018) ******* ID# 0 ********

 ** Profile: "SCHEMATIC1-B1"  [ D:\MDDT\LAB1\b1-pspicefiles\schematic1\b1.sim ] 


 ****     JOB STATISTICS SUMMARY


******************************************************************************



  License check-out time            =         .61
  Total job time (using Solver 1)   =         .45
